Circuit: * C:\Users\PCC\Desktop\Topicos_Especiais_1\Trabalho 5\Parte 6\Parte 6.asc

Direct Newton iteration for .op point succeeded.
Semiconductor Device Operating Points:
                        --- MOSFET Transistors ---
Name:          m6          m5          m4          m3          m2
Model:        n_1u        n_1u        n_1u        n_1u        n_1u
Id:          4.97e-06    4.15e-05    4.13e-05    4.04e-05    3.89e-05
Vgs:         1.50e+00    1.50e+00    1.50e+00    1.50e+00    1.50e+00
Vds:         2.99e-02    4.96e+00    4.59e+00    2.98e+00    1.11e+00
Vbs:         0.00e+00    0.00e+00    0.00e+00    0.00e+00    0.00e+00
Vth:         8.90e-01    8.90e-01    8.90e-01    8.90e-01    8.90e-01
Vdsat:       4.74e-01    4.74e-01    4.74e-01    4.74e-01    4.74e-01
Gm:          7.19e-06    1.08e-04    1.07e-04    1.05e-04    1.00e-04
Gds:         1.59e-04    4.05e-06    4.05e-06    4.09e-06    4.45e-06
Gmb:         2.69e-06    3.66e-05    3.64e-05    3.55e-05    3.41e-05
Cbd:         0.00e+00    0.00e+00    0.00e+00    0.00e+00    0.00e+00
Cbs:         0.00e+00    0.00e+00    0.00e+00    0.00e+00    0.00e+00
Cgsov:       6.00e-16    6.00e-16    6.00e-16    6.00e-16    6.00e-16
Cgdov:       6.00e-16    6.00e-16    6.00e-16    6.00e-16    6.00e-16
Cgbov:       1.30e-16    1.30e-16    1.30e-16    1.30e-16    1.30e-16
Cgs:         3.44e-15    4.49e-15    4.49e-15    4.49e-15    4.49e-15
Cgd:         3.29e-15    0.00e+00    0.00e+00    0.00e+00    0.00e+00
Cgb:         0.00e+00    0.00e+00    0.00e+00    0.00e+00    0.00e+00

Name:          m1
Model:        n_1u
Id:          3.93e-05
Vgs:         1.50e+00
Vds:         1.50e+00
Vbs:         0.00e+00
Vth:         8.90e-01
Vdsat:       4.74e-01
Gm:          1.01e-04
Gds:         4.28e-06
Gmb:         3.45e-05
Cbd:         0.00e+00
Cbs:         0.00e+00
Cgsov:       6.00e-16
Cgdov:       6.00e-16
Cgbov:       1.30e-16
Cgs:         4.49e-15
Cgd:         0.00e+00
Cgb:         0.00e+00



Date: Fri Oct 27 11:19:40 2017
Total elapsed time: 0.312 seconds.

tnom = 27
temp = 27
method = trap
totiter = 7
traniter = 0
tranpoints = 0
accept = 0
rejected = 0
matrix size = 8
fillins = 0
solver = Normal
Matrix Compiler1: 372 bytes object code size
Matrix Compiler2: 680 bytes object code size
