Circuit: * C:\Users\PCC\Desktop\Topicos Especiais 1\Trabalho 5\Parte 2 e 3\Parte 2.asc

Direct Newton iteration for .op point succeeded.
Semiconductor Device Operating Points:
                        --- MOSFET Transistors ---
Name:          m1
Model:        n_1u
Id:          2.98e-06
Vgs:         1.00e+00
Vds:         1.00e+00
Vbs:         0.00e+00
Vth:         8.90e-01
Vdsat:       1.32e-01
Gm:          3.43e-05
Gds:         1.49e-07
Gmb:         1.20e-05
Cbd:         0.00e+00
Cbs:         0.00e+00
Cgsov:       6.00e-16
Cgdov:       6.00e-16
Cgbov:       1.30e-16
Cgs:         4.49e-15
Cgd:         0.00e+00
Cgb:         0.00e+00



Date: Wed Oct 11 15:22:48 2017
Total elapsed time: 0.078 seconds.

tnom = 27
temp = 27
method = trap
totiter = 8
traniter = 0
tranpoints = 0
accept = 0
rejected = 0
matrix size = 3
fillins = 0
solver = Normal
Matrix Compiler1: 32 bytes object code size
Matrix Compiler2: 121 bytes object code size
