Circuit: * C:\Users\PCC\Desktop\Topicos Especiais 1\Trabalho 5\Espelho de corrente\Espelho de corrente.asc

Direct Newton iteration for .op point succeeded.
Semiconductor Device Operating Points:
                        --- MOSFET Transistors ---
Name:          m1          m2
Model:        n_1u        n_1u
Id:         -3.93e-05    3.89e-05
Vgs:         0.00e+00    1.50e+00
Vds:        -1.50e+00    1.11e+00
Vbs:        -1.50e+00    0.00e+00
Vth:         8.90e-01    8.90e-01
Vdsat:       4.74e-01    4.74e-01
Gm:          1.01e-04    1.00e-04
Gds:         4.28e-06    4.45e-06
Gmb:         3.45e-05    3.41e-05
Cbd:         0.00e+00    0.00e+00
Cbs:         0.00e+00    0.00e+00
Cgsov:       6.00e-16    6.00e-16
Cgdov:       6.00e-16    6.00e-16
Cgbov:       1.30e-16    1.30e-16
Cgs:         0.00e+00    4.49e-15
Cgd:         4.49e-15    0.00e+00
Cgb:         0.00e+00    0.00e+00



Date: Wed Oct 11 14:46:13 2017
Total elapsed time: 0.109 seconds.

tnom = 27
temp = 27
method = trap
totiter = 25
traniter = 0
tranpoints = 0
accept = 0
rejected = 0
matrix size = 6
fillins = 0
solver = Normal
Matrix Compiler1: 146 bytes object code size
Matrix Compiler2: 320 bytes object code size
