Circuit: * C:\Users\nicob\Desktop\Tópicos Especiais 1\trabalho 1\LTSpice\mos_models_level1.asc

Model "modn": Oxide thickness thinner than recommended for a level 1 MOSFET.
Instance "m1": Length shorter than recommended for a level 1 MOSFET.
Instance "m1": Width narrower than recommended for a level 1 MOSFET.
Direct Newton iteration for .op point succeeded.
Semiconductor Device Operating Points:
                        --- MOSFET Transistors ---
Name:          m1
Model:        modn
Id:          4.48e-07
Vgs:         1.08e+00
Vds:         2.00e+00
Vbs:         0.00e+00
Vth:         1.00e+00
Vdsat:       8.00e-02
Gm:          1.12e-05
Gds:         3.73e-08
Gmb:         3.76e-06
Cbd:         0.00e+00
Cbs:         0.00e+00
Cgsov:       1.75e-15
Cgdov:       1.75e-15
Cgbov:       0.00e+00
Cgs:         8.06e-15
Cgd:         0.00e+00
Cgb:         0.00e+00



Date: Thu Aug 24 22:13:55 2017
Total elapsed time: 0.063 seconds.

tnom = 27
temp = 27
method = trap
totiter = 4
traniter = 0
tranpoints = 0
accept = 0
rejected = 0
matrix size = 4
fillins = 0
solver = Normal
Matrix Compiler1: 118 bytes object code size
Matrix Compiler2: 216 bytes object code size
